
T335C 000:002 SEGGER J-Link V6.16c Log File (0001ms, 0003ms total)
T335C 000:002 DLL Compiled: Jun 16 2017 18:14:49 (0001ms, 0003ms total)
T335C 000:002 Logging started @ 2026-03-05 10:35 (0001ms, 0003ms total)
T335C 000:003 JLINK_SetWarnOutHandler(...) (0000ms, 0003ms total)
T335C 000:003 JLINK_OpenEx(...)
Firmware: J-Link ARM-OB STM32 compiled Aug 22 2012 19:52:04
Hardware: V7.00WEBSRV Webserver running on local port 19080 (0011ms, 0014ms total)
T335C 000:003   returns O.K. (0011ms, 0014ms total)
T335C 000:014 JLINK_GetEmuCaps()  returns 0x88EA5833 (0000ms, 0014ms total)
T335C 000:014 JLINK_TIF_GetAvailable(...) (0000ms, 0014ms total)
T335C 000:014 JLINK_SetErrorOutHandler(...) (0000ms, 0014ms total)
T335C 000:014 JLINK_ExecCommand("ProjectFile = "E:\Users\Jiao Wei\Desktop\主控_驱动_侧线程序\cexian_2624_last\JLinkSettings.ini"", ...).   returns 0x00 (0073ms, 0087ms total)
T335C 000:088 JLINK_ExecCommand("Device = STM32F103C8", ...). Device "STM32F103C8" selected.  returns 0x00 (0003ms, 0090ms total)
T335C 000:091 JLINK_ExecCommand("DisableConnectionTimeout", ...).   returns 0x01 (0000ms, 0090ms total)
T335C 000:091 JLINK_GetHardwareVersion()  returns 0x11170 (0000ms, 0090ms total)
T335C 000:091 JLINK_GetDLLVersion()  returns 61603 (0000ms, 0090ms total)
T335C 000:091 JLINK_GetFirmwareString(...) (0000ms, 0090ms total)
T335C 000:101 JLINK_GetDLLVersion()  returns 61603 (0000ms, 0090ms total)
T335C 000:101 JLINK_GetCompileDateTime() (0000ms, 0090ms total)
T335C 000:103 JLINK_GetFirmwareString(...) (0000ms, 0090ms total)
T335C 000:105 JLINK_GetHardwareVersion()  returns 0x11170 (0000ms, 0090ms total)
T335C 000:108 JLINK_TIF_Select(JLINKARM_TIF_SWD)  returns 0x00 (0001ms, 0091ms total)
T335C 000:109 JLINK_SetSpeed(5000) (0001ms, 0092ms total)
T335C 000:110 JLINK_GetId() >0x10B TIF>Found SW-DP with ID 0x1BA01477 >0x0D TIF> >0x28 TIF> >0x0D TIF> >0x28 TIF> >0x0D TIF> >0x28 TIF> >0x0D TIF> >0x28 TIF> >0x0D TIF> >0x21 TIF> >0x0D TIF> >0x28 TIF> >0x0D TIF> >0x28 TIF> >0x0D TIF> >0x28 TIF> >0x0D TIF> >0x21 TIF> >0x0D TIF> >0x21 TIF> >0x0D TIF> >0x28 TIF> >0x0D TIF> >0x21 TIF> >0x0D TIF> >0x21 TIF> >0x0D TIF> >0x28 TIF> >0x0D TIF> >0x28 TIF> >0x0D TIF> >0x28 TIF> >0x0D TIF> >0x21 TIF> >0x0D TIF> >0x21 TIF> >0x0D TIF> >0x28 TIF> >0x0D TIF> >0x21 TIF>
 >0x0D TIF> >0x21 TIF> >0x0D TIF> >0x28 TIF> >0x0D TIF> >0x21 TIF> >0x0D TIF> >0x21 TIF> >0x0D TIF> >0x28 TIF> >0x0D TIF> >0x21 TIF> >0x0D TIF> >0x21 TIF> >0x0D TIF> >0x28 TIF> >0x0D TIF> >0x21 TIF> >0x0D TIF> >0x21 TIF> >0x10B TIF>Found SW-DP with ID 0x1BA01477 >0x0D TIF> >0x28 TIF> >0x0D TIF> >0x28 TIF> >0x0D TIF> >0x28 TIF> >0x0D TIF> >0x28 TIF> >0x0D TIF> >0x21 TIF> >0x0D TIF> >0x28 TIF>Scanning APs, stopping at first AHB-AP found. >0x0D TIF> >0x28 TIF> >0x0D TIF> >0x21 TIF> >0x0D TIF> >0x21 TIF>
AP[0] IDR: 0x14770011 (AHB-AP) >0x0D TIF> >0x28 TIF> >0x0D TIF> >0x21 TIF> >0x0D TIF> >0x21 TIF>AHB-AP ROM: 0xE00FF000 (Base addr. of first ROM table) >0x0D TIF> >0x28 TIF> >0x0D TIF> >0x28 TIF> >0x0D TIF> >0x28 TIF> >0x0D TIF> >0x21 TIF> >0x0D TIF> >0x21 TIF> >0x0D TIF> >0x28 TIF> >0x0D TIF> >0x21 TIF> >0x0D TIF> >0x21 TIF>CPUID reg: 0x411FC231. Implementer code: 0x41 (ARM)Found Cortex-M3 r1p1, Little endian. -- CPU_ReadMem(4 bytes @ 0xE000EDF0) -- CPU_WriteMem(4 bytes @ 0xE000EDF0)
 -- CPU_ReadMem(4 bytes @ 0xE0002000)FPUnit: 6 code (BP) slots and 2 literal slots -- CPU_ReadMem(4 bytes @ 0xE000EDFC) -- CPU_WriteMem(4 bytes @ 0xE000EDFC) -- CPU_ReadMem(4 bytes @ 0xE0001000) -- CPU_WriteMem(4 bytes @ 0xE0001000) -- CPU_ReadMem(4 bytes @ 0xE000ED88) -- CPU_WriteMem(4 bytes @ 0xE000ED88) -- CPU_ReadMem(4 bytes @ 0xE000ED88) -- CPU_WriteMem(4 bytes @ 0xE000ED88)CoreSight components:ROMTbl[0] @ E00FF000 -- CPU_ReadMem(16 bytes @ 0xE00FF000) -- CPU_ReadMem(16 bytes @ 0xE000EFF0)
 -- CPU_ReadMem(16 bytes @ 0xE000EFE0)ROMTbl[0][0]: E000E000, CID: B105E00D, PID: 001BB000 SCS -- CPU_ReadMem(16 bytes @ 0xE0001FF0) -- CPU_ReadMem(16 bytes @ 0xE0001FE0)ROMTbl[0][1]: E0001000, CID: B105E00D, PID: 001BB002 DWT -- CPU_ReadMem(16 bytes @ 0xE0002FF0) -- CPU_ReadMem(16 bytes @ 0xE0002FE0)ROMTbl[0][2]: E0002000, CID: B105E00D, PID: 000BB003 FPB -- CPU_ReadMem(16 bytes @ 0xE0000FF0) -- CPU_ReadMem(16 bytes @ 0xE0000FE0)ROMTbl[0][3]: E0000000, CID: B105E00D, PID: 001BB001 ITM
 -- CPU_ReadMem(16 bytes @ 0xE00FF010) -- CPU_ReadMem(16 bytes @ 0xE0040FF0) -- CPU_ReadMem(16 bytes @ 0xE0040FE0)ROMTbl[0][4]: E0040000, CID: B105900D, PID: 001BB923 TPIU-Lite >0x0D TIF> >0x21 TIF>  returns 0x1BA01477 (0100ms, 0192ms total)
T335C 000:210 JLINK_GetDLLVersion()  returns 61603 (0000ms, 0192ms total)
T335C 000:210 JLINK_CORE_GetFound()  returns 0x30000FF (0000ms, 0192ms total)
T335C 000:210 JLINK_GetDebugInfo(0x100 = JLINKARM_ROM_TABLE_ADDR_INDEX) -- Value=0xE00FF000  returns 0x00 (0000ms, 0192ms total)
T335C 000:212 JLINK_GetDebugInfo(0x100 = JLINKARM_ROM_TABLE_ADDR_INDEX) -- Value=0xE00FF000  returns 0x00 (0000ms, 0192ms total)
T335C 000:212 JLINK_GetDebugInfo(0x101 = JLINKARM_DEBUG_INFO_ETM_ADDR_INDEX) -- Value=0x00000000  returns 0x00 (0000ms, 0192ms total)
T335C 000:212 JLINK_ReadMemEx(0xE0041FF0, 0x0010 Bytes, ..., Flags = 0x02000004) -- CPU_ReadMem(16 bytes @ 0xE0041FF0) - Data: 00 00 00 00 00 00 00 00 00 00 00 00 00 00 00 00  returns 0x10 (0001ms, 0193ms total)
T335C 000:213 JLINK_GetDebugInfo(0x102 = JLINKARM_DEBUG_INFO_MTB_ADDR_INDEX) -- Value=0x00000000  returns 0x00 (0000ms, 0193ms total)
T335C 000:213 JLINK_GetDebugInfo(0x103 = JLINKARM_DEBUG_INFO_TPIU_ADDR_INDEX) -- Value=0xE0040000  returns 0x00 (0000ms, 0193ms total)
T335C 000:213 JLINK_GetDebugInfo(0x104 = JLINKARM_DEBUG_INFO_ITM_ADDR_INDEX) -- Value=0xE0000000  returns 0x00 (0000ms, 0193ms total)
T335C 000:213 JLINK_GetDebugInfo(0x105 = JLINKARM_DEBUG_INFO_DWT_ADDR_INDEX) -- Value=0xE0001000  returns 0x00 (0000ms, 0193ms total)
T335C 000:213 JLINK_GetDebugInfo(0x106 = JLINKARM_DEBUG_INFO_FPB_ADDR_INDEX) -- Value=0xE0002000  returns 0x00 (0000ms, 0193ms total)
T335C 000:213 JLINK_GetDebugInfo(0x107 = JLINKARM_DEBUG_INFO_NVIC_ADDR_INDEX) -- Value=0xE000E000  returns 0x00 (0000ms, 0193ms total)
T335C 000:213 JLINK_GetDebugInfo(0x10C = JLINKARM_DEBUG_INFO_DBG_ADDR_INDEX) -- Value=0xE000EDF0  returns 0x00 (0000ms, 0193ms total)
T335C 000:213 JLINK_ReadMemU32(0xE000ED00, 0x0001 Items, ...) -- CPU_ReadMem(4 bytes @ 0xE000ED00) - Data: 31 C2 1F 41  returns 0x01 (0001ms, 0194ms total)
T335C 000:214 JLINK_GetDebugInfo(0x10F = JLINKARM_DEBUG_INFO_HAS_CORTEX_M_SECURITY_EXT_INDEX) -- Value=0x00000000  returns 0x00 (0000ms, 0194ms total)
T335C 000:214 JLINK_SetResetType(JLINKARM_CM3_RESET_TYPE_NORMAL)  returns JLINKARM_CM3_RESET_TYPE_NORMAL (0000ms, 0194ms total)
T335C 000:214 JLINK_Reset() -- CPU is running -- CPU_WriteMem(4 bytes @ 0xE000EDF0) -- CPU is running -- CPU_WriteMem(4 bytes @ 0xE000EDFC) >0x35 TIF>Setting AIRCR.SYSRESETREQ -- CPU is running -- CPU_WriteMem(4 bytes @ 0xE000ED0C) >0x0D TIF> >0x28 TIF> -- CPU_ReadMem(4 bytes @ 0xE000ED0C) -- CPU_ReadMem(4 bytes @ 0xE000EDF0) -- CPU_ReadMem(4 bytes @ 0xE000EDF0) -- CPU_ReadMem(4 bytes @ 0xE000EDF0) -- CPU is running -- CPU_WriteMem(4 bytes @ 0xE000EDF0) -- CPU is running
 -- CPU_WriteMem(4 bytes @ 0xE000EDFC) -- CPU_ReadMem(4 bytes @ 0xE000EDF0) -- CPU_WriteMem(4 bytes @ 0xE0002000) -- CPU_ReadMem(4 bytes @ 0xE000EDFC) -- CPU_ReadMem(4 bytes @ 0xE0001000) (0074ms, 0268ms total)
T335C 000:288 JLINK_Halt()  returns 0x00 (0000ms, 0268ms total)
T335C 000:288 JLINK_ReadMemU32(0xE000EDF0, 0x0001 Items, ...) -- CPU_ReadMem(4 bytes @ 0xE000EDF0) - Data: 03 00 03 00  returns 0x01 (0001ms, 0269ms total)
T335C 000:289 JLINK_WriteU32(0xE000EDF0, 0xA05F0003) -- CPU_WriteMem(4 bytes @ 0xE000EDF0)  returns 0x00 (0001ms, 0270ms total)
T335C 000:290 JLINK_WriteU32(0xE000EDFC, 0x01000000) -- CPU_WriteMem(4 bytes @ 0xE000EDFC)  returns 0x00 (0001ms, 0271ms total)
T335C 000:303 JLINK_GetHWStatus(...)  returns 0x00 (0001ms, 0272ms total)
T335C 000:309 JLINK_GetNumBPUnits(Type = 0xFFFFFF00)  returns 0x06 (0000ms, 0272ms total)
T335C 000:309 JLINK_GetNumBPUnits(Type = 0xF0)  returns 0x2000 (0000ms, 0272ms total)
T335C 000:309 JLINK_GetNumWPUnits()  returns 0x04 (0000ms, 0272ms total)
T335C 000:313 JLINK_GetSpeed()  returns 0xFA0 (0000ms, 0272ms total)
T335C 000:316 JLINK_ReadMemU32(0xE000E004, 0x0001 Items, ...) -- CPU_ReadMem(4 bytes @ 0xE000E004) - Data: 01 00 00 00  returns 0x01 (0001ms, 0273ms total)
T335C 000:317 JLINK_ReadMemU32(0xE000E004, 0x0001 Items, ...) -- CPU_ReadMem(4 bytes @ 0xE000E004) - Data: 01 00 00 00  returns 0x01 (0001ms, 0274ms total)
T335C 000:318 JLINK_WriteMemEx(0xE0001000, 0x001C Bytes, ..., Flags = 0x02000004) - Data: 01 00 00 00 00 00 00 00 00 00 00 00 00 00 00 00 ... -- CPU_WriteMem(28 bytes @ 0xE0001000)  returns 0x1C (0001ms, 0275ms total)
T335C 000:319 JLINK_Halt()  returns 0x00 (0000ms, 0275ms total)
T335C 000:319 JLINK_IsHalted()  returns TRUE (0000ms, 0275ms total)
T335C 000:332 JLINK_WriteMem(0x20000000, 0x0164 Bytes, ...) - Data: 00 BE 0A E0 0D 78 2D 06 68 40 08 24 40 00 00 D3 ... -- CPU_WriteMem(356 bytes @ 0x20000000)  returns 0x164 (0005ms, 0280ms total)
T335C 000:337 JLINK_WriteReg(R0, 0x08000000)  returns 0x00 (0000ms, 0280ms total)
T335C 000:337 JLINK_WriteReg(R1, 0x00B71B00)  returns 0x00 (0000ms, 0280ms total)
T335C 000:337 JLINK_WriteReg(R2, 0x00000001)  returns 0x00 (0000ms, 0280ms total)
T335C 000:337 JLINK_WriteReg(R3, 0x00000000)  returns 0x00 (0000ms, 0280ms total)
T335C 000:337 JLINK_WriteReg(R4, 0x00000000)  returns 0x00 (0000ms, 0280ms total)
T335C 000:337 JLINK_WriteReg(R5, 0x00000000)  returns 0x00 (0000ms, 0280ms total)
T335C 000:337 JLINK_WriteReg(R6, 0x00000000)  returns 0x00 (0000ms, 0280ms total)
T335C 000:337 JLINK_WriteReg(R7, 0x00000000)  returns 0x00 (0000ms, 0280ms total)
T335C 000:337 JLINK_WriteReg(R8, 0x00000000)  returns 0x00 (0000ms, 0280ms total)
T335C 000:337 JLINK_WriteReg(R9, 0x20000160)  returns 0x00 (0000ms, 0280ms total)
T335C 000:337 JLINK_WriteReg(R10, 0x00000000)  returns 0x00 (0000ms, 0280ms total)
T335C 000:337 JLINK_WriteReg(R11, 0x00000000)  returns 0x00 (0000ms, 0280ms total)
T335C 000:337 JLINK_WriteReg(R12, 0x00000000)  returns 0x00 (0000ms, 0280ms total)
T335C 000:337 JLINK_WriteReg(R13 (SP), 0x20001000)  returns 0x00 (0000ms, 0280ms total)
T335C 000:337 JLINK_WriteReg(R14, 0x20000001)  returns 0x00 (0000ms, 0280ms total)
T335C 000:337 JLINK_WriteReg(R15 (PC), 0x20000038)  returns 0x00 (0000ms, 0280ms total)
T335C 000:337 JLINK_WriteReg(XPSR, 0x01000000)  returns 0x00 (0000ms, 0280ms total)
T335C 000:337 JLINK_WriteReg(MSP, 0x20001000)  returns 0x00 (0000ms, 0280ms total)
T335C 000:337 JLINK_WriteReg(PSP, 0x20001000)  returns 0x00 (0000ms, 0280ms total)
T335C 000:337 JLINK_WriteReg(CFBP, 0x00000000)  returns 0x00 (0000ms, 0280ms total)
T335C 000:337 JLINK_SetBPEx(Addr = 0x20000000, Type = 0xFFFFFFF2) -- CPU_ReadMem(2 bytes @ 0x20000000)  returns 0x00000001 (0001ms, 0281ms total)
T335C 000:338 JLINK_Go() -- CPU_WriteMem(2 bytes @ 0x20000000) -- CPU_ReadMem(4 bytes @ 0xE0001000) -- CPU_WriteMem(4 bytes @ 0xE0002008) -- CPU_WriteMem(4 bytes @ 0xE000200C) -- CPU_WriteMem(4 bytes @ 0xE0002010) -- CPU_WriteMem(4 bytes @ 0xE0002014) -- CPU_WriteMem(4 bytes @ 0xE0002018) -- CPU_WriteMem(4 bytes @ 0xE000201C) -- CPU_WriteMem(4 bytes @ 0xE0001004) (0007ms, 0288ms total)
T335C 000:345 JLINK_IsHalted() -- CPU_ReadMem(2 bytes @ 0x20000000)  returns TRUE (0004ms, 0292ms total)
T335C 000:349 JLINK_ReadReg(R15 (PC))  returns 0x20000000 (0000ms, 0288ms total)
T335C 000:349 JLINK_ClrBPEx(BPHandle = 0x00000001)  returns 0x00 (0000ms, 0288ms total)
T335C 000:349 JLINK_ReadReg(R0)  returns 0x00000000 (0000ms, 0288ms total)
T335C 000:349 JLINK_WriteReg(R0, 0x08000000)  returns 0x00 (0000ms, 0288ms total)
T335C 000:349 JLINK_WriteReg(R1, 0x00B71B00)  returns 0x00 (0000ms, 0288ms total)
T335C 000:349 JLINK_WriteReg(R2, 0x00000001)  returns 0x00 (0000ms, 0288ms total)
T335C 000:349 JLINK_WriteReg(R3, 0x00000000)  returns 0x00 (0000ms, 0288ms total)
T335C 000:349 JLINK_WriteReg(R4, 0x00000000)  returns 0x00 (0000ms, 0288ms total)
T335C 000:349 JLINK_WriteReg(R5, 0x00000000)  returns 0x00 (0000ms, 0288ms total)
T335C 000:349 JLINK_WriteReg(R6, 0x00000000)  returns 0x00 (0000ms, 0288ms total)
T335C 000:349 JLINK_WriteReg(R7, 0x00000000)  returns 0x00 (0000ms, 0288ms total)
T335C 000:349 JLINK_WriteReg(R8, 0x00000000)  returns 0x00 (0000ms, 0288ms total)
T335C 000:349 JLINK_WriteReg(R9, 0x20000160)  returns 0x00 (0000ms, 0288ms total)
T335C 000:349 JLINK_WriteReg(R10, 0x00000000)  returns 0x00 (0000ms, 0288ms total)
T335C 000:350 JLINK_WriteReg(R11, 0x00000000)  returns 0x00 (0000ms, 0288ms total)
T335C 000:350 JLINK_WriteReg(R12, 0x00000000)  returns 0x00 (0000ms, 0288ms total)
T335C 000:350 JLINK_WriteReg(R13 (SP), 0x20001000)  returns 0x00 (0000ms, 0288ms total)
T335C 000:350 JLINK_WriteReg(R14, 0x20000001)  returns 0x00 (0000ms, 0288ms total)
T335C 000:350 JLINK_WriteReg(R15 (PC), 0x2000007C)  returns 0x00 (0000ms, 0288ms total)
T335C 000:350 JLINK_WriteReg(XPSR, 0x01000000)  returns 0x00 (0000ms, 0288ms total)
T335C 000:350 JLINK_WriteReg(MSP, 0x20001000)  returns 0x00 (0000ms, 0288ms total)
T335C 000:350 JLINK_WriteReg(PSP, 0x20001000)  returns 0x00 (0000ms, 0288ms total)
T335C 000:350 JLINK_WriteReg(CFBP, 0x00000000)  returns 0x00 (0000ms, 0288ms total)
T335C 000:350 JLINK_SetBPEx(Addr = 0x20000000, Type = 0xFFFFFFF2)  returns 0x00000002 (0000ms, 0288ms total)
T335C 000:350 JLINK_Go() -- CPU_ReadMem(4 bytes @ 0xE0001000) (0002ms, 0290ms total)
T335C 000:352 JLINK_IsHalted()  returns FALSE (0001ms, 0291ms total)
T335C 000:375 JLINK_IsHalted() -- CPU_ReadMem(2 bytes @ 0x20000000)  returns TRUE (0003ms, 0293ms total)
T335C 000:378 JLINK_ReadReg(R15 (PC))  returns 0x20000000 (0001ms, 0291ms total)
T335C 000:379 JLINK_ClrBPEx(BPHandle = 0x00000002)  returns 0x00 (0000ms, 0291ms total)
T335C 000:379 JLINK_ReadReg(R0)  returns 0x00000000 (0000ms, 0291ms total)
T335C 000:432 JLINK_WriteReg(R0, 0x00000001)  returns 0x00 (0000ms, 0291ms total)
T335C 000:432 JLINK_WriteReg(R1, 0x00B71B00)  returns 0x00 (0000ms, 0291ms total)
T335C 000:432 JLINK_WriteReg(R2, 0x00000001)  returns 0x00 (0000ms, 0291ms total)
T335C 000:432 JLINK_WriteReg(R3, 0x00000000)  returns 0x00 (0000ms, 0291ms total)
T335C 000:432 JLINK_WriteReg(R4, 0x00000000)  returns 0x00 (0000ms, 0291ms total)
T335C 000:432 JLINK_WriteReg(R5, 0x00000000)  returns 0x00 (0000ms, 0291ms total)
T335C 000:432 JLINK_WriteReg(R6, 0x00000000)  returns 0x00 (0000ms, 0291ms total)
T335C 000:432 JLINK_WriteReg(R7, 0x00000000)  returns 0x00 (0000ms, 0291ms total)
T335C 000:432 JLINK_WriteReg(R8, 0x00000000)  returns 0x00 (0000ms, 0291ms total)
T335C 000:432 JLINK_WriteReg(R9, 0x20000160)  returns 0x00 (0000ms, 0291ms total)
T335C 000:432 JLINK_WriteReg(R10, 0x00000000)  returns 0x00 (0000ms, 0291ms total)
T335C 000:432 JLINK_WriteReg(R11, 0x00000000)  returns 0x00 (0000ms, 0291ms total)
T335C 000:432 JLINK_WriteReg(R12, 0x00000000)  returns 0x00 (0000ms, 0291ms total)
T335C 000:432 JLINK_WriteReg(R13 (SP), 0x20001000)  returns 0x00 (0000ms, 0291ms total)
T335C 000:432 JLINK_WriteReg(R14, 0x20000001)  returns 0x00 (0000ms, 0291ms total)
T335C 000:432 JLINK_WriteReg(R15 (PC), 0x2000006A)  returns 0x00 (0000ms, 0291ms total)
T335C 000:432 JLINK_WriteReg(XPSR, 0x01000000)  returns 0x00 (0000ms, 0291ms total)
T335C 000:432 JLINK_WriteReg(MSP, 0x20001000)  returns 0x00 (0000ms, 0291ms total)
T335C 000:432 JLINK_WriteReg(PSP, 0x20001000)  returns 0x00 (0000ms, 0291ms total)
T335C 000:432 JLINK_WriteReg(CFBP, 0x00000000)  returns 0x00 (0000ms, 0291ms total)
T335C 000:432 JLINK_SetBPEx(Addr = 0x20000000, Type = 0xFFFFFFF2)  returns 0x00000003 (0000ms, 0291ms total)
T335C 000:432 JLINK_Go() -- CPU_ReadMem(4 bytes @ 0xE0001000) (0003ms, 0294ms total)
T335C 000:435 JLINK_IsHalted() -- CPU_ReadMem(2 bytes @ 0x20000000)  returns TRUE (0004ms, 0298ms total)
T335C 000:439 JLINK_ReadReg(R15 (PC))  returns 0x20000000 (0000ms, 0294ms total)
T335C 000:439 JLINK_ClrBPEx(BPHandle = 0x00000003)  returns 0x00 (0000ms, 0294ms total)
T335C 000:439 JLINK_ReadReg(R0)  returns 0x00000000 (0000ms, 0294ms total)
T335C 000:446 JLINK_WriteMem(0x20000000, 0x0164 Bytes, ...) - Data: 00 BE 0A E0 0D 78 2D 06 68 40 08 24 40 00 00 D3 ... -- CPU_WriteMem(356 bytes @ 0x20000000)  returns 0x164 (0005ms, 0299ms total)
T335C 000:451 JLINK_WriteReg(R0, 0x08000000)  returns 0x00 (0000ms, 0299ms total)
T335C 000:451 JLINK_WriteReg(R1, 0x00B71B00)  returns 0x00 (0000ms, 0299ms total)
T335C 000:451 JLINK_WriteReg(R2, 0x00000002)  returns 0x00 (0000ms, 0299ms total)
T335C 000:451 JLINK_WriteReg(R3, 0x00000000)  returns 0x00 (0000ms, 0299ms total)
T335C 000:451 JLINK_WriteReg(R4, 0x00000000)  returns 0x00 (0000ms, 0299ms total)
T335C 000:451 JLINK_WriteReg(R5, 0x00000000)  returns 0x00 (0000ms, 0299ms total)
T335C 000:451 JLINK_WriteReg(R6, 0x00000000)  returns 0x00 (0000ms, 0299ms total)
T335C 000:451 JLINK_WriteReg(R7, 0x00000000)  returns 0x00 (0000ms, 0299ms total)
T335C 000:451 JLINK_WriteReg(R8, 0x00000000)  returns 0x00 (0000ms, 0299ms total)
T335C 000:451 JLINK_WriteReg(R9, 0x20000160)  returns 0x00 (0000ms, 0299ms total)
T335C 000:451 JLINK_WriteReg(R10, 0x00000000)  returns 0x00 (0000ms, 0299ms total)
T335C 000:451 JLINK_WriteReg(R11, 0x00000000)  returns 0x00 (0000ms, 0299ms total)
T335C 000:451 JLINK_WriteReg(R12, 0x00000000)  returns 0x00 (0000ms, 0299ms total)
T335C 000:451 JLINK_WriteReg(R13 (SP), 0x20001000)  returns 0x00 (0000ms, 0299ms total)
T335C 000:451 JLINK_WriteReg(R14, 0x20000001)  returns 0x00 (0000ms, 0299ms total)
T335C 000:451 JLINK_WriteReg(R15 (PC), 0x20000038)  returns 0x00 (0000ms, 0299ms total)
T335C 000:451 JLINK_WriteReg(XPSR, 0x01000000)  returns 0x00 (0000ms, 0299ms total)
T335C 000:451 JLINK_WriteReg(MSP, 0x20001000)  returns 0x00 (0000ms, 0299ms total)
T335C 000:451 JLINK_WriteReg(PSP, 0x20001000)  returns 0x00 (0000ms, 0299ms total)
T335C 000:451 JLINK_WriteReg(CFBP, 0x00000000)  returns 0x00 (0000ms, 0299ms total)
T335C 000:451 JLINK_SetBPEx(Addr = 0x20000000, Type = 0xFFFFFFF2) -- CPU_ReadMem(2 bytes @ 0x20000000)  returns 0x00000004 (0001ms, 0300ms total)
T335C 000:452 JLINK_Go() -- CPU_WriteMem(2 bytes @ 0x20000000) -- CPU_ReadMem(4 bytes @ 0xE0001000) (0004ms, 0304ms total)
T335C 000:456 JLINK_IsHalted() -- CPU_ReadMem(2 bytes @ 0x20000000)  returns TRUE (0004ms, 0308ms total)
T335C 000:460 JLINK_ReadReg(R15 (PC))  returns 0x20000000 (0000ms, 0304ms total)
T335C 000:460 JLINK_ClrBPEx(BPHandle = 0x00000004)  returns 0x00 (0000ms, 0304ms total)
T335C 000:460 JLINK_ReadReg(R0)  returns 0x00000000 (0000ms, 0304ms total)
T335C 000:460 JLINK_WriteMem(0x20000164, 0x029C Bytes, ...) - Data: 68 0B 00 20 A9 01 00 08 F9 14 00 08 F1 14 00 08 ... -- CPU_WriteMem(668 bytes @ 0x20000164)  returns 0x29C (0008ms, 0312ms total)
T335C 000:468 JLINK_WriteMem(0x20000400, 0x0164 Bytes, ...) - Data: 01 24 01 E0 AF F3 00 80 00 21 0A 22 06 F1 24 07 ... -- CPU_WriteMem(356 bytes @ 0x20000400)  returns 0x164 (0005ms, 0317ms total)
T335C 000:473 JLINK_WriteReg(R0, 0x08000000)  returns 0x00 (0000ms, 0317ms total)
T335C 000:473 JLINK_WriteReg(R1, 0x00000400)  returns 0x00 (0000ms, 0317ms total)
T335C 000:473 JLINK_WriteReg(R2, 0x20000164)  returns 0x00 (0000ms, 0317ms total)
T335C 000:473 JLINK_WriteReg(R3, 0x00000000)  returns 0x00 (0000ms, 0317ms total)
T335C 000:473 JLINK_WriteReg(R4, 0x00000000)  returns 0x00 (0000ms, 0317ms total)
T335C 000:473 JLINK_WriteReg(R5, 0x00000000)  returns 0x00 (0000ms, 0317ms total)
T335C 000:473 JLINK_WriteReg(R6, 0x00000000)  returns 0x00 (0000ms, 0317ms total)
T335C 000:473 JLINK_WriteReg(R7, 0x00000000)  returns 0x00 (0000ms, 0317ms total)
T335C 000:473 JLINK_WriteReg(R8, 0x00000000)  returns 0x00 (0000ms, 0317ms total)
T335C 000:473 JLINK_WriteReg(R9, 0x20000160)  returns 0x00 (0000ms, 0317ms total)
T335C 000:473 JLINK_WriteReg(R10, 0x00000000)  returns 0x00 (0000ms, 0317ms total)
T335C 000:473 JLINK_WriteReg(R11, 0x00000000)  returns 0x00 (0000ms, 0317ms total)
T335C 000:473 JLINK_WriteReg(R12, 0x00000000)  returns 0x00 (0000ms, 0317ms total)
T335C 000:473 JLINK_WriteReg(R13 (SP), 0x20001000)  returns 0x00 (0000ms, 0317ms total)
T335C 000:473 JLINK_WriteReg(R14, 0x20000001)  returns 0x00 (0000ms, 0317ms total)
T335C 000:473 JLINK_WriteReg(R15 (PC), 0x200000F4)  returns 0x00 (0000ms, 0317ms total)
T335C 000:473 JLINK_WriteReg(XPSR, 0x01000000)  returns 0x00 (0000ms, 0317ms total)
T335C 000:473 JLINK_WriteReg(MSP, 0x20001000)  returns 0x00 (0000ms, 0317ms total)
T335C 000:473 JLINK_WriteReg(PSP, 0x20001000)  returns 0x00 (0000ms, 0317ms total)
T335C 000:473 JLINK_WriteReg(CFBP, 0x00000000)  returns 0x00 (0000ms, 0317ms total)
T335C 000:473 JLINK_SetBPEx(Addr = 0x20000000, Type = 0xFFFFFFF2)  returns 0x00000005 (0000ms, 0317ms total)
T335C 000:473 JLINK_Go() -- CPU_ReadMem(4 bytes @ 0xE0001000) (0003ms, 0320ms total)
T335C 000:476 JLINK_IsHalted()  returns FALSE (0000ms, 0320ms total)
T335C 000:481 JLINK_IsHalted()  returns FALSE (0000ms, 0320ms total)
T335C 000:483 JLINK_IsHalted()  returns FALSE (0000ms, 0320ms total)
T335C 000:485 JLINK_IsHalted()  returns FALSE (0000ms, 0320ms total)
T335C 000:487 JLINK_IsHalted()  returns FALSE (0000ms, 0320ms total)
T335C 000:489 JLINK_IsHalted()  returns FALSE (0000ms, 0320ms total)
T335C 000:491 JLINK_IsHalted()  returns FALSE (0000ms, 0320ms total)
T335C 000:493 JLINK_IsHalted()  returns FALSE (0000ms, 0320ms total)
T335C 000:495 JLINK_IsHalted()  returns FALSE (0000ms, 0320ms total)
T335C 000:497 JLINK_IsHalted()  returns FALSE (0000ms, 0320ms total)
T335C 000:499 JLINK_IsHalted()  returns FALSE (0000ms, 0320ms total)
T335C 000:501 JLINK_IsHalted()  returns FALSE (0000ms, 0320ms total)
T335C 000:503 JLINK_IsHalted()  returns FALSE (0000ms, 0320ms total)
T335C 000:505 JLINK_IsHalted()  returns FALSE (0000ms, 0320ms total)
T335C 000:507 JLINK_IsHalted() -- CPU_ReadMem(2 bytes @ 0x20000000)  returns TRUE (0004ms, 0324ms total)
T335C 000:511 JLINK_ReadReg(R15 (PC))  returns 0x20000000 (0000ms, 0320ms total)
T335C 000:511 JLINK_ClrBPEx(BPHandle = 0x00000005)  returns 0x00 (0000ms, 0320ms total)
T335C 000:511 JLINK_ReadReg(R0)  returns 0x00000000 (0000ms, 0320ms total)
T335C 000:511 JLINK_WriteMem(0x20000164, 0x029C Bytes, ...) - Data: 02 D4 20 46 AF F3 00 80 00 26 08 E0 D4 E9 01 21 ... -- CPU_WriteMem(668 bytes @ 0x20000164)  returns 0x29C (0008ms, 0328ms total)
T335C 000:519 JLINK_WriteMem(0x20000400, 0x0164 Bytes, ...) - Data: 11 0F 00 90 01 DB 11 23 01 E0 09 F1 01 03 0A AA ... -- CPU_WriteMem(356 bytes @ 0x20000400)  returns 0x164 (0005ms, 0333ms total)
T335C 000:524 JLINK_WriteReg(R0, 0x08000400)  returns 0x00 (0000ms, 0333ms total)
T335C 000:524 JLINK_WriteReg(R1, 0x00000400)  returns 0x00 (0000ms, 0333ms total)
T335C 000:524 JLINK_WriteReg(R2, 0x20000164)  returns 0x00 (0000ms, 0333ms total)
T335C 000:524 JLINK_WriteReg(R3, 0x00000000)  returns 0x00 (0000ms, 0333ms total)
T335C 000:524 JLINK_WriteReg(R4, 0x00000000)  returns 0x00 (0000ms, 0333ms total)
T335C 000:524 JLINK_WriteReg(R5, 0x00000000)  returns 0x00 (0000ms, 0333ms total)
T335C 000:524 JLINK_WriteReg(R6, 0x00000000)  returns 0x00 (0000ms, 0333ms total)
T335C 000:524 JLINK_WriteReg(R7, 0x00000000)  returns 0x00 (0000ms, 0333ms total)
T335C 000:524 JLINK_WriteReg(R8, 0x00000000)  returns 0x00 (0000ms, 0333ms total)
T335C 000:524 JLINK_WriteReg(R9, 0x20000160)  returns 0x00 (0000ms, 0333ms total)
T335C 000:524 JLINK_WriteReg(R10, 0x00000000)  returns 0x00 (0000ms, 0333ms total)
T335C 000:524 JLINK_WriteReg(R11, 0x00000000)  returns 0x00 (0000ms, 0333ms total)
T335C 000:524 JLINK_WriteReg(R12, 0x00000000)  returns 0x00 (0000ms, 0333ms total)
T335C 000:524 JLINK_WriteReg(R13 (SP), 0x20001000)  returns 0x00 (0000ms, 0333ms total)
T335C 000:524 JLINK_WriteReg(R14, 0x20000001)  returns 0x00 (0000ms, 0333ms total)
T335C 000:524 JLINK_WriteReg(R15 (PC), 0x200000F4)  returns 0x00 (0000ms, 0333ms total)
T335C 000:524 JLINK_WriteReg(XPSR, 0x01000000)  returns 0x00 (0000ms, 0333ms total)
T335C 000:524 JLINK_WriteReg(MSP, 0x20001000)  returns 0x00 (0000ms, 0333ms total)
T335C 000:524 JLINK_WriteReg(PSP, 0x20001000)  returns 0x00 (0000ms, 0333ms total)
T335C 000:524 JLINK_WriteReg(CFBP, 0x00000000)  returns 0x00 (0000ms, 0333ms total)
T335C 000:524 JLINK_SetBPEx(Addr = 0x20000000, Type = 0xFFFFFFF2)  returns 0x00000006 (0000ms, 0333ms total)
T335C 000:524 JLINK_Go() -- CPU_ReadMem(4 bytes @ 0xE0001000) (0003ms, 0336ms total)
T335C 000:527 JLINK_IsHalted()  returns FALSE (0001ms, 0337ms total)
T335C 000:531 JLINK_IsHalted()  returns FALSE (0000ms, 0336ms total)
T335C 000:533 JLINK_IsHalted()  returns FALSE (0000ms, 0336ms total)
T335C 000:535 JLINK_IsHalted()  returns FALSE (0000ms, 0336ms total)
T335C 000:537 JLINK_IsHalted()  returns FALSE (0000ms, 0336ms total)
T335C 000:539 JLINK_IsHalted()  returns FALSE (0000ms, 0336ms total)
T335C 000:541 JLINK_IsHalted()  returns FALSE (0000ms, 0336ms total)
T335C 000:543 JLINK_IsHalted()  returns FALSE (0000ms, 0336ms total)
T335C 000:545 JLINK_IsHalted()  returns FALSE (0000ms, 0336ms total)
T335C 000:547 JLINK_IsHalted()  returns FALSE (0000ms, 0336ms total)
T335C 000:549 JLINK_IsHalted()  returns FALSE (0000ms, 0336ms total)
T335C 000:551 JLINK_IsHalted()  returns FALSE (0000ms, 0336ms total)
T335C 000:553 JLINK_IsHalted()  returns FALSE (0000ms, 0336ms total)
T335C 000:555 JLINK_IsHalted()  returns FALSE (0000ms, 0336ms total)
T335C 000:557 JLINK_IsHalted()  returns FALSE (0000ms, 0336ms total)
T335C 000:559 JLINK_IsHalted() -- CPU_ReadMem(2 bytes @ 0x20000000)  returns TRUE (0004ms, 0340ms total)
T335C 000:563 JLINK_ReadReg(R15 (PC))  returns 0x20000000 (0000ms, 0336ms total)
T335C 000:563 JLINK_ClrBPEx(BPHandle = 0x00000006)  returns 0x00 (0000ms, 0336ms total)
T335C 000:563 JLINK_ReadReg(R0)  returns 0x00000000 (0000ms, 0336ms total)
T335C 000:564 JLINK_WriteMem(0x20000164, 0x029C Bytes, ...) - Data: C0 06 02 D4 20 46 AF F3 00 80 09 98 28 B1 D4 E9 ... -- CPU_WriteMem(668 bytes @ 0x20000164)  returns 0x29C (0008ms, 0344ms total)
T335C 000:572 JLINK_WriteMem(0x20000400, 0x0164 Bytes, ...) - Data: 02 D5 64 42 01 20 00 E0 00 20 DF F8 98 A0 80 46 ... -- CPU_WriteMem(356 bytes @ 0x20000400)  returns 0x164 (0004ms, 0348ms total)
T335C 000:576 JLINK_WriteReg(R0, 0x08000800)  returns 0x00 (0000ms, 0348ms total)
T335C 000:576 JLINK_WriteReg(R1, 0x00000400)  returns 0x00 (0000ms, 0348ms total)
T335C 000:576 JLINK_WriteReg(R2, 0x20000164)  returns 0x00 (0000ms, 0348ms total)
T335C 000:576 JLINK_WriteReg(R3, 0x00000000)  returns 0x00 (0000ms, 0348ms total)
T335C 000:576 JLINK_WriteReg(R4, 0x00000000)  returns 0x00 (0000ms, 0348ms total)
T335C 000:576 JLINK_WriteReg(R5, 0x00000000)  returns 0x00 (0000ms, 0348ms total)
T335C 000:577 JLINK_WriteReg(R6, 0x00000000)  returns 0x00 (0000ms, 0348ms total)
T335C 000:577 JLINK_WriteReg(R7, 0x00000000)  returns 0x00 (0000ms, 0348ms total)
T335C 000:577 JLINK_WriteReg(R8, 0x00000000)  returns 0x00 (0000ms, 0348ms total)
T335C 000:577 JLINK_WriteReg(R9, 0x20000160)  returns 0x00 (0000ms, 0348ms total)
T335C 000:577 JLINK_WriteReg(R10, 0x00000000)  returns 0x00 (0000ms, 0348ms total)
T335C 000:577 JLINK_WriteReg(R11, 0x00000000)  returns 0x00 (0000ms, 0348ms total)
T335C 000:577 JLINK_WriteReg(R12, 0x00000000)  returns 0x00 (0000ms, 0348ms total)
T335C 000:577 JLINK_WriteReg(R13 (SP), 0x20001000)  returns 0x00 (0000ms, 0348ms total)
T335C 000:577 JLINK_WriteReg(R14, 0x20000001)  returns 0x00 (0000ms, 0348ms total)
T335C 000:577 JLINK_WriteReg(R15 (PC), 0x200000F4)  returns 0x00 (0000ms, 0348ms total)
T335C 000:577 JLINK_WriteReg(XPSR, 0x01000000)  returns 0x00 (0000ms, 0348ms total)
T335C 000:577 JLINK_WriteReg(MSP, 0x20001000)  returns 0x00 (0000ms, 0348ms total)
T335C 000:577 JLINK_WriteReg(PSP, 0x20001000)  returns 0x00 (0000ms, 0348ms total)
T335C 000:577 JLINK_WriteReg(CFBP, 0x00000000)  returns 0x00 (0000ms, 0348ms total)
T335C 000:577 JLINK_SetBPEx(Addr = 0x20000000, Type = 0xFFFFFFF2)  returns 0x00000007 (0000ms, 0348ms total)
T335C 000:577 JLINK_Go() -- CPU_ReadMem(4 bytes @ 0xE0001000) (0003ms, 0351ms total)
T335C 000:580 JLINK_IsHalted()  returns FALSE (0000ms, 0351ms total)
T335C 000:584 JLINK_IsHalted()  returns FALSE (0000ms, 0351ms total)
T335C 000:586 JLINK_IsHalted()  returns FALSE (0000ms, 0351ms total)
T335C 000:588 JLINK_IsHalted()  returns FALSE (0000ms, 0351ms total)
T335C 000:592 JLINK_IsHalted()  returns FALSE (0000ms, 0351ms total)
T335C 000:594 JLINK_IsHalted()  returns FALSE (0000ms, 0351ms total)
T335C 000:596 JLINK_IsHalted()  returns FALSE (0000ms, 0351ms total)
T335C 000:601 JLINK_IsHalted()  returns FALSE (0000ms, 0351ms total)
T335C 000:603 JLINK_IsHalted()  returns FALSE (0000ms, 0351ms total)
T335C 000:606 JLINK_IsHalted()  returns FALSE (0000ms, 0351ms total)
T335C 000:608 JLINK_IsHalted()  returns FALSE (0000ms, 0351ms total)
T335C 000:610 JLINK_IsHalted()  returns FALSE (0000ms, 0351ms total)
T335C 000:614 JLINK_IsHalted() -- CPU_ReadMem(2 bytes @ 0x20000000)  returns TRUE (0004ms, 0355ms total)
T335C 000:618 JLINK_ReadReg(R15 (PC))  returns 0x20000000 (0000ms, 0351ms total)
T335C 000:618 JLINK_ClrBPEx(BPHandle = 0x00000007)  returns 0x00 (0000ms, 0351ms total)
T335C 000:618 JLINK_ReadReg(R0)  returns 0x00000000 (0000ms, 0351ms total)
T335C 000:619 JLINK_WriteMem(0x20000164, 0x029C Bytes, ...) - Data: 70 47 00 BF D0 1A 01 BA B1 FA 81 F1 01 F0 18 01 ... -- CPU_WriteMem(668 bytes @ 0x20000164)  returns 0x29C (0008ms, 0359ms total)
T335C 000:627 JLINK_WriteMem(0x20000400, 0x0164 Bytes, ...) - Data: 57 31 0C FB 0E F7 B0 EB C7 00 72 EB 57 72 0C FB ... -- CPU_WriteMem(356 bytes @ 0x20000400)  returns 0x164 (0004ms, 0363ms total)
T335C 000:631 JLINK_WriteReg(R0, 0x08000C00)  returns 0x00 (0000ms, 0363ms total)
T335C 000:631 JLINK_WriteReg(R1, 0x00000400)  returns 0x00 (0000ms, 0363ms total)
T335C 000:631 JLINK_WriteReg(R2, 0x20000164)  returns 0x00 (0000ms, 0363ms total)
T335C 000:631 JLINK_WriteReg(R3, 0x00000000)  returns 0x00 (0000ms, 0363ms total)
T335C 000:631 JLINK_WriteReg(R4, 0x00000000)  returns 0x00 (0000ms, 0363ms total)
T335C 000:631 JLINK_WriteReg(R5, 0x00000000)  returns 0x00 (0000ms, 0363ms total)
T335C 000:631 JLINK_WriteReg(R6, 0x00000000)  returns 0x00 (0000ms, 0363ms total)
T335C 000:631 JLINK_WriteReg(R7, 0x00000000)  returns 0x00 (0000ms, 0363ms total)
T335C 000:631 JLINK_WriteReg(R8, 0x00000000)  returns 0x00 (0000ms, 0363ms total)
T335C 000:631 JLINK_WriteReg(R9, 0x20000160)  returns 0x00 (0000ms, 0363ms total)
T335C 000:631 JLINK_WriteReg(R10, 0x00000000)  returns 0x00 (0001ms, 0364ms total)
T335C 000:632 JLINK_WriteReg(R11, 0x00000000)  returns 0x00 (0000ms, 0364ms total)
T335C 000:632 JLINK_WriteReg(R12, 0x00000000)  returns 0x00 (0000ms, 0364ms total)
T335C 000:632 JLINK_WriteReg(R13 (SP), 0x20001000)  returns 0x00 (0000ms, 0364ms total)
T335C 000:632 JLINK_WriteReg(R14, 0x20000001)  returns 0x00 (0000ms, 0364ms total)
T335C 000:632 JLINK_WriteReg(R15 (PC), 0x200000F4)  returns 0x00 (0000ms, 0364ms total)
T335C 000:632 JLINK_WriteReg(XPSR, 0x01000000)  returns 0x00 (0000ms, 0364ms total)
T335C 000:632 JLINK_WriteReg(MSP, 0x20001000)  returns 0x00 (0000ms, 0364ms total)
T335C 000:632 JLINK_WriteReg(PSP, 0x20001000)  returns 0x00 (0000ms, 0364ms total)
T335C 000:632 JLINK_WriteReg(CFBP, 0x00000000)  returns 0x00 (0000ms, 0364ms total)
T335C 000:632 JLINK_SetBPEx(Addr = 0x20000000, Type = 0xFFFFFFF2)  returns 0x00000008 (0000ms, 0364ms total)
T335C 000:632 JLINK_Go() -- CPU_ReadMem(4 bytes @ 0xE0001000) (0003ms, 0367ms total)
T335C 000:635 JLINK_IsHalted()  returns FALSE (0000ms, 0367ms total)
T335C 000:639 JLINK_IsHalted()  returns FALSE (0000ms, 0367ms total)
T335C 000:641 JLINK_IsHalted()  returns FALSE (0000ms, 0367ms total)
T335C 000:643 JLINK_IsHalted()  returns FALSE (0000ms, 0367ms total)
T335C 000:645 JLINK_IsHalted()  returns FALSE (0000ms, 0367ms total)
T335C 000:647 JLINK_IsHalted()  returns FALSE (0000ms, 0367ms total)
T335C 000:649 JLINK_IsHalted()  returns FALSE (0000ms, 0367ms total)
T335C 000:654 JLINK_IsHalted()  returns FALSE (0000ms, 0367ms total)
T335C 000:656 JLINK_IsHalted()  returns FALSE (0000ms, 0367ms total)
T335C 000:658 JLINK_IsHalted()  returns FALSE (0000ms, 0367ms total)
T335C 000:660 JLINK_IsHalted()  returns FALSE (0000ms, 0367ms total)
T335C 000:662 JLINK_IsHalted()  returns FALSE (0000ms, 0367ms total)
T335C 000:664 JLINK_IsHalted()  returns FALSE (0000ms, 0367ms total)
T335C 000:666 JLINK_IsHalted() -- CPU_ReadMem(2 bytes @ 0x20000000)  returns TRUE (0004ms, 0371ms total)
T335C 000:670 JLINK_ReadReg(R15 (PC))  returns 0x20000000 (0000ms, 0367ms total)
T335C 000:670 JLINK_ClrBPEx(BPHandle = 0x00000008)  returns 0x00 (0000ms, 0367ms total)
T335C 000:670 JLINK_ReadReg(R0)  returns 0x00000000 (0000ms, 0367ms total)
T335C 000:671 JLINK_WriteMem(0x20000164, 0x029C Bytes, ...) - Data: 5C 5B 5B 5A 5A 59 59 58 58 57 57 56 56 55 55 55 ... -- CPU_WriteMem(668 bytes @ 0x20000164)  returns 0x29C (0008ms, 0375ms total)
T335C 000:679 JLINK_WriteMem(0x20000400, 0x0164 Bytes, ...) - Data: 11 47 24 EA 05 46 21 EA 07 4C 05 FB 07 F4 06 FB ... -- CPU_WriteMem(356 bytes @ 0x20000400)  returns 0x164 (0004ms, 0379ms total)
T335C 000:683 JLINK_WriteReg(R0, 0x08001000)  returns 0x00 (0000ms, 0379ms total)
T335C 000:683 JLINK_WriteReg(R1, 0x00000400)  returns 0x00 (0001ms, 0380ms total)
T335C 000:684 JLINK_WriteReg(R2, 0x20000164)  returns 0x00 (0000ms, 0380ms total)
T335C 000:684 JLINK_WriteReg(R3, 0x00000000)  returns 0x00 (0000ms, 0380ms total)
T335C 000:684 JLINK_WriteReg(R4, 0x00000000)  returns 0x00 (0000ms, 0380ms total)
T335C 000:684 JLINK_WriteReg(R5, 0x00000000)  returns 0x00 (0000ms, 0380ms total)
T335C 000:684 JLINK_WriteReg(R6, 0x00000000)  returns 0x00 (0000ms, 0380ms total)
T335C 000:684 JLINK_WriteReg(R7, 0x00000000)  returns 0x00 (0000ms, 0380ms total)
T335C 000:684 JLINK_WriteReg(R8, 0x00000000)  returns 0x00 (0000ms, 0380ms total)
T335C 000:684 JLINK_WriteReg(R9, 0x20000160)  returns 0x00 (0000ms, 0380ms total)
T335C 000:684 JLINK_WriteReg(R10, 0x00000000)  returns 0x00 (0000ms, 0380ms total)
T335C 000:684 JLINK_WriteReg(R11, 0x00000000)  returns 0x00 (0000ms, 0380ms total)
T335C 000:684 JLINK_WriteReg(R12, 0x00000000)  returns 0x00 (0000ms, 0380ms total)
T335C 000:684 JLINK_WriteReg(R13 (SP), 0x20001000)  returns 0x00 (0000ms, 0380ms total)
T335C 000:684 JLINK_WriteReg(R14, 0x20000001)  returns 0x00 (0000ms, 0380ms total)
T335C 000:684 JLINK_WriteReg(R15 (PC), 0x200000F4)  returns 0x00 (0000ms, 0380ms total)
T335C 000:684 JLINK_WriteReg(XPSR, 0x01000000)  returns 0x00 (0000ms, 0380ms total)
T335C 000:684 JLINK_WriteReg(MSP, 0x20001000)  returns 0x00 (0000ms, 0380ms total)
T335C 000:684 JLINK_WriteReg(PSP, 0x20001000)  returns 0x00 (0000ms, 0380ms total)
T335C 000:684 JLINK_WriteReg(CFBP, 0x00000000)  returns 0x00 (0000ms, 0380ms total)
T335C 000:684 JLINK_SetBPEx(Addr = 0x20000000, Type = 0xFFFFFFF2)  returns 0x00000009 (0000ms, 0380ms total)
T335C 000:684 JLINK_Go() -- CPU_ReadMem(4 bytes @ 0xE0001000) (0003ms, 0383ms total)
T335C 000:687 JLINK_IsHalted()  returns FALSE (0001ms, 0384ms total)
T335C 000:692 JLINK_IsHalted()  returns FALSE (0000ms, 0383ms total)
T335C 000:694 JLINK_IsHalted()  returns FALSE (0000ms, 0383ms total)
T335C 000:696 JLINK_IsHalted()  returns FALSE (0000ms, 0383ms total)
T335C 000:698 JLINK_IsHalted()  returns FALSE (0000ms, 0383ms total)
T335C 000:702 JLINK_IsHalted()  returns FALSE (0000ms, 0383ms total)
T335C 000:704 JLINK_IsHalted()  returns FALSE (0000ms, 0383ms total)
T335C 000:706 JLINK_IsHalted()  returns FALSE (0000ms, 0383ms total)
T335C 000:708 JLINK_IsHalted()  returns FALSE (0000ms, 0383ms total)
T335C 000:712 JLINK_IsHalted()  returns FALSE (0000ms, 0383ms total)
T335C 000:714 JLINK_IsHalted()  returns FALSE (0000ms, 0383ms total)
T335C 000:716 JLINK_IsHalted()  returns FALSE (0000ms, 0383ms total)
T335C 000:719 JLINK_IsHalted() -- CPU_ReadMem(2 bytes @ 0x20000000)  returns TRUE (0004ms, 0387ms total)
T335C 000:723 JLINK_ReadReg(R15 (PC))  returns 0x20000000 (0000ms, 0383ms total)
T335C 000:723 JLINK_ClrBPEx(BPHandle = 0x00000009)  returns 0x00 (0000ms, 0383ms total)
T335C 000:723 JLINK_ReadReg(R0)  returns 0x00000000 (0000ms, 0383ms total)
T335C 000:723 JLINK_WriteMem(0x20000164, 0x029C Bytes, ...) - Data: 70 47 00 00 04 04 02 40 00 00 02 40 21 B1 02 68 ... -- CPU_WriteMem(668 bytes @ 0x20000164)  returns 0x29C (0008ms, 0391ms total)
T335C 000:731 JLINK_WriteMem(0x20000400, 0x0164 Bytes, ...) - Data: 4F F0 00 60 04 49 08 60 10 BD 00 00 00 10 02 40 ... -- CPU_WriteMem(356 bytes @ 0x20000400)  returns 0x164 (0004ms, 0395ms total)
T335C 000:735 JLINK_WriteReg(R0, 0x08001400)  returns 0x00 (0000ms, 0395ms total)
T335C 000:735 JLINK_WriteReg(R1, 0x00000400)  returns 0x00 (0000ms, 0395ms total)
T335C 000:735 JLINK_WriteReg(R2, 0x20000164)  returns 0x00 (0000ms, 0395ms total)
T335C 000:735 JLINK_WriteReg(R3, 0x00000000)  returns 0x00 (0000ms, 0395ms total)
T335C 000:735 JLINK_WriteReg(R4, 0x00000000)  returns 0x00 (0000ms, 0395ms total)
T335C 000:735 JLINK_WriteReg(R5, 0x00000000)  returns 0x00 (0000ms, 0395ms total)
T335C 000:735 JLINK_WriteReg(R6, 0x00000000)  returns 0x00 (0000ms, 0395ms total)
T335C 000:735 JLINK_WriteReg(R7, 0x00000000)  returns 0x00 (0000ms, 0395ms total)
T335C 000:735 JLINK_WriteReg(R8, 0x00000000)  returns 0x00 (0001ms, 0396ms total)
T335C 000:736 JLINK_WriteReg(R9, 0x20000160)  returns 0x00 (0000ms, 0396ms total)
T335C 000:736 JLINK_WriteReg(R10, 0x00000000)  returns 0x00 (0000ms, 0396ms total)
T335C 000:736 JLINK_WriteReg(R11, 0x00000000)  returns 0x00 (0000ms, 0396ms total)
T335C 000:736 JLINK_WriteReg(R12, 0x00000000)  returns 0x00 (0000ms, 0396ms total)
T335C 000:736 JLINK_WriteReg(R13 (SP), 0x20001000)  returns 0x00 (0000ms, 0396ms total)
T335C 000:736 JLINK_WriteReg(R14, 0x20000001)  returns 0x00 (0000ms, 0396ms total)
T335C 000:736 JLINK_WriteReg(R15 (PC), 0x200000F4)  returns 0x00 (0000ms, 0396ms total)
T335C 000:736 JLINK_WriteReg(XPSR, 0x01000000)  returns 0x00 (0000ms, 0396ms total)
T335C 000:736 JLINK_WriteReg(MSP, 0x20001000)  returns 0x00 (0000ms, 0396ms total)
T335C 000:736 JLINK_WriteReg(PSP, 0x20001000)  returns 0x00 (0000ms, 0396ms total)
T335C 000:736 JLINK_WriteReg(CFBP, 0x00000000)  returns 0x00 (0000ms, 0396ms total)
T335C 000:736 JLINK_SetBPEx(Addr = 0x20000000, Type = 0xFFFFFFF2)  returns 0x0000000A (0000ms, 0396ms total)
T335C 000:736 JLINK_Go() -- CPU_ReadMem(4 bytes @ 0xE0001000) (0003ms, 0399ms total)
T335C 000:739 JLINK_IsHalted()  returns FALSE (0001ms, 0400ms total)
T335C 000:743 JLINK_IsHalted()  returns FALSE (0000ms, 0399ms total)
T335C 000:745 JLINK_IsHalted()  returns FALSE (0000ms, 0399ms total)
T335C 000:747 JLINK_IsHalted()  returns FALSE (0000ms, 0399ms total)
T335C 000:749 JLINK_IsHalted()  returns FALSE (0000ms, 0399ms total)
T335C 000:751 JLINK_IsHalted()  returns FALSE (0000ms, 0399ms total)
T335C 000:753 JLINK_IsHalted()  returns FALSE (0000ms, 0399ms total)
T335C 000:755 JLINK_IsHalted()  returns FALSE (0000ms, 0399ms total)
T335C 000:757 JLINK_IsHalted()  returns FALSE (0000ms, 0399ms total)
T335C 000:759 JLINK_IsHalted()  returns FALSE (0000ms, 0399ms total)
T335C 000:761 JLINK_IsHalted()  returns FALSE (0000ms, 0399ms total)
T335C 000:763 JLINK_IsHalted()  returns FALSE (0000ms, 0399ms total)
T335C 000:765 JLINK_IsHalted()  returns FALSE (0000ms, 0399ms total)
T335C 000:767 JLINK_IsHalted()  returns FALSE (0000ms, 0399ms total)
T335C 000:769 JLINK_IsHalted()  returns FALSE (0000ms, 0399ms total)
T335C 000:774 JLINK_IsHalted() -- CPU_ReadMem(2 bytes @ 0x20000000)  returns TRUE (0004ms, 0403ms total)
T335C 000:778 JLINK_ReadReg(R15 (PC))  returns 0x20000000 (0000ms, 0399ms total)
T335C 000:778 JLINK_ClrBPEx(BPHandle = 0x0000000A)  returns 0x00 (0000ms, 0399ms total)
T335C 000:778 JLINK_ReadReg(R0)  returns 0x00000000 (0000ms, 0399ms total)
T335C 000:779 JLINK_WriteMem(0x20000164, 0x029C Bytes, ...) - Data: 62 48 80 78 01 E0 66 48 00 78 65 49 08 70 DD 20 ... -- CPU_WriteMem(668 bytes @ 0x20000164)  returns 0x29C (0008ms, 0407ms total)
T335C 000:787 JLINK_WriteMem(0x20000400, 0x0164 Bytes, ...) - Data: DA 21 20 46 00 F0 D2 F9 20 46 00 F0 28 FA 02 21 ... -- CPU_WriteMem(356 bytes @ 0x20000400)  returns 0x164 (0004ms, 0411ms total)
T335C 000:791 JLINK_WriteReg(R0, 0x08001800)  returns 0x00 (0000ms, 0411ms total)
T335C 000:791 JLINK_WriteReg(R1, 0x00000400)  returns 0x00 (0000ms, 0411ms total)
T335C 000:791 JLINK_WriteReg(R2, 0x20000164)  returns 0x00 (0000ms, 0411ms total)
T335C 000:791 JLINK_WriteReg(R3, 0x00000000)  returns 0x00 (0000ms, 0411ms total)
T335C 000:791 JLINK_WriteReg(R4, 0x00000000)  returns 0x00 (0000ms, 0411ms total)
T335C 000:791 JLINK_WriteReg(R5, 0x00000000)  returns 0x00 (0000ms, 0411ms total)
T335C 000:791 JLINK_WriteReg(R6, 0x00000000)  returns 0x00 (0000ms, 0411ms total)
T335C 000:791 JLINK_WriteReg(R7, 0x00000000)  returns 0x00 (0000ms, 0411ms total)
T335C 000:791 JLINK_WriteReg(R8, 0x00000000)  returns 0x00 (0000ms, 0411ms total)
T335C 000:791 JLINK_WriteReg(R9, 0x20000160)  returns 0x00 (0000ms, 0411ms total)
T335C 000:791 JLINK_WriteReg(R10, 0x00000000)  returns 0x00 (0000ms, 0411ms total)
T335C 000:791 JLINK_WriteReg(R11, 0x00000000)  returns 0x00 (0001ms, 0412ms total)
T335C 000:792 JLINK_WriteReg(R12, 0x00000000)  returns 0x00 (0000ms, 0412ms total)
T335C 000:792 JLINK_WriteReg(R13 (SP), 0x20001000)  returns 0x00 (0000ms, 0412ms total)
T335C 000:792 JLINK_WriteReg(R14, 0x20000001)  returns 0x00 (0000ms, 0412ms total)
T335C 000:792 JLINK_WriteReg(R15 (PC), 0x200000F4)  returns 0x00 (0000ms, 0412ms total)
T335C 000:792 JLINK_WriteReg(XPSR, 0x01000000)  returns 0x00 (0000ms, 0412ms total)
T335C 000:792 JLINK_WriteReg(MSP, 0x20001000)  returns 0x00 (0000ms, 0412ms total)
T335C 000:792 JLINK_WriteReg(PSP, 0x20001000)  returns 0x00 (0000ms, 0412ms total)
T335C 000:792 JLINK_WriteReg(CFBP, 0x00000000)  returns 0x00 (0000ms, 0412ms total)
T335C 000:792 JLINK_SetBPEx(Addr = 0x20000000, Type = 0xFFFFFFF2)  returns 0x0000000B (0000ms, 0412ms total)
T335C 000:792 JLINK_Go() -- CPU_ReadMem(4 bytes @ 0xE0001000) (0003ms, 0415ms total)
T335C 000:795 JLINK_IsHalted()  returns FALSE (0000ms, 0415ms total)
T335C 000:800 JLINK_IsHalted()  returns FALSE (0000ms, 0415ms total)
T335C 000:802 JLINK_IsHalted()  returns FALSE (0000ms, 0415ms total)
T335C 000:804 JLINK_IsHalted()  returns FALSE (0000ms, 0415ms total)
T335C 000:806 JLINK_IsHalted()  returns FALSE (0000ms, 0415ms total)
T335C 000:812 JLINK_IsHalted()  returns FALSE (0000ms, 0415ms total)
T335C 000:814 JLINK_IsHalted()  returns FALSE (0000ms, 0415ms total)
T335C 000:821 JLINK_IsHalted()  returns FALSE (0000ms, 0415ms total)
T335C 000:823 JLINK_IsHalted()  returns FALSE (0000ms, 0415ms total)
T335C 000:825 JLINK_IsHalted() -- CPU_ReadMem(2 bytes @ 0x20000000)  returns TRUE (0004ms, 0419ms total)
T335C 000:829 JLINK_ReadReg(R15 (PC))  returns 0x20000000 (0000ms, 0415ms total)
T335C 000:829 JLINK_ClrBPEx(BPHandle = 0x0000000B)  returns 0x00 (0000ms, 0415ms total)
T335C 000:829 JLINK_ReadReg(R0)  returns 0x00000000 (0000ms, 0415ms total)
T335C 000:829 JLINK_WriteMem(0x20000164, 0x029C Bytes, ...) - Data: 04 43 B4 F5 00 4F 0A DD 0F 49 60 1A 01 F0 1E F9 ... -- CPU_WriteMem(668 bytes @ 0x20000164)  returns 0x29C (0008ms, 0423ms total)
T335C 000:837 JLINK_WriteMem(0x20000400, 0x0164 Bytes, ...) - Data: 1F FB A1 88 01 22 20 68 00 F0 1A FB FF F7 71 FF ... -- CPU_WriteMem(356 bytes @ 0x20000400)  returns 0x164 (0004ms, 0427ms total)
T335C 000:841 JLINK_WriteReg(R0, 0x08001C00)  returns 0x00 (0000ms, 0427ms total)
T335C 000:841 JLINK_WriteReg(R1, 0x00000400)  returns 0x00 (0000ms, 0427ms total)
T335C 000:841 JLINK_WriteReg(R2, 0x20000164)  returns 0x00 (0000ms, 0427ms total)
T335C 000:841 JLINK_WriteReg(R3, 0x00000000)  returns 0x00 (0000ms, 0427ms total)
T335C 000:841 JLINK_WriteReg(R4, 0x00000000)  returns 0x00 (0000ms, 0427ms total)
T335C 000:841 JLINK_WriteReg(R5, 0x00000000)  returns 0x00 (0000ms, 0427ms total)
T335C 000:841 JLINK_WriteReg(R6, 0x00000000)  returns 0x00 (0000ms, 0427ms total)
T335C 000:841 JLINK_WriteReg(R7, 0x00000000)  returns 0x00 (0000ms, 0427ms total)
T335C 000:841 JLINK_WriteReg(R8, 0x00000000)  returns 0x00 (0000ms, 0427ms total)
T335C 000:841 JLINK_WriteReg(R9, 0x20000160)  returns 0x00 (0000ms, 0427ms total)
T335C 000:841 JLINK_WriteReg(R10, 0x00000000)  returns 0x00 (0000ms, 0427ms total)
T335C 000:841 JLINK_WriteReg(R11, 0x00000000)  returns 0x00 (0000ms, 0427ms total)
T335C 000:841 JLINK_WriteReg(R12, 0x00000000)  returns 0x00 (0000ms, 0427ms total)
T335C 000:841 JLINK_WriteReg(R13 (SP), 0x20001000)  returns 0x00 (0000ms, 0427ms total)
T335C 000:841 JLINK_WriteReg(R14, 0x20000001)  returns 0x00 (0000ms, 0427ms total)
T335C 000:841 JLINK_WriteReg(R15 (PC), 0x200000F4)  returns 0x00 (0000ms, 0427ms total)
T335C 000:841 JLINK_WriteReg(XPSR, 0x01000000)  returns 0x00 (0000ms, 0427ms total)
T335C 000:841 JLINK_WriteReg(MSP, 0x20001000)  returns 0x00 (0000ms, 0427ms total)
T335C 000:841 JLINK_WriteReg(PSP, 0x20001000)  returns 0x00 (0000ms, 0427ms total)
T335C 000:841 JLINK_WriteReg(CFBP, 0x00000000)  returns 0x00 (0000ms, 0427ms total)
T335C 000:841 JLINK_SetBPEx(Addr = 0x20000000, Type = 0xFFFFFFF2)  returns 0x0000000C (0000ms, 0427ms total)
T335C 000:841 JLINK_Go() -- CPU_ReadMem(4 bytes @ 0xE0001000) (0003ms, 0430ms total)
T335C 000:844 JLINK_IsHalted()  returns FALSE (0001ms, 0431ms total)
T335C 000:848 JLINK_IsHalted()  returns FALSE (0000ms, 0430ms total)
T335C 000:850 JLINK_IsHalted()  returns FALSE (0000ms, 0430ms total)
T335C 000:855 JLINK_IsHalted()  returns FALSE (0000ms, 0430ms total)
T335C 000:857 JLINK_IsHalted()  returns FALSE (0000ms, 0430ms total)
T335C 000:859 JLINK_IsHalted()  returns FALSE (0000ms, 0430ms total)
T335C 000:863 JLINK_IsHalted()  returns FALSE (0000ms, 0430ms total)
T335C 000:865 JLINK_IsHalted()  returns FALSE (0000ms, 0430ms total)
T335C 000:869 JLINK_IsHalted()  returns FALSE (0001ms, 0431ms total)
T335C 000:872 JLINK_IsHalted()  returns FALSE (0000ms, 0430ms total)
T335C 000:874 JLINK_IsHalted()  returns FALSE (0000ms, 0430ms total)
T335C 000:879 JLINK_IsHalted() -- CPU_ReadMem(2 bytes @ 0x20000000)  returns TRUE (0004ms, 0434ms total)
T335C 000:883 JLINK_ReadReg(R15 (PC))  returns 0x20000000 (0000ms, 0430ms total)
T335C 000:883 JLINK_ClrBPEx(BPHandle = 0x0000000C)  returns 0x00 (0000ms, 0430ms total)
T335C 000:883 JLINK_ReadReg(R0)  returns 0x00000000 (0000ms, 0430ms total)
T335C 000:884 JLINK_WriteMem(0x20000164, 0x029C Bytes, ...) - Data: 50 F8 27 00 10 BB D9 49 01 EB 07 10 FF F7 94 FD ... -- CPU_WriteMem(668 bytes @ 0x20000164)  returns 0x29C (0008ms, 0438ms total)
T335C 000:892 JLINK_WriteMem(0x20000400, 0x0164 Bytes, ...) - Data: 73 FC 83 46 00 F0 44 FC 5A 4A CD E9 2A 01 11 6A ... -- CPU_WriteMem(356 bytes @ 0x20000400)  returns 0x164 (0005ms, 0443ms total)
T335C 000:897 JLINK_WriteReg(R0, 0x08002000)  returns 0x00 (0000ms, 0443ms total)
T335C 000:897 JLINK_WriteReg(R1, 0x00000400)  returns 0x00 (0000ms, 0443ms total)
T335C 000:897 JLINK_WriteReg(R2, 0x20000164)  returns 0x00 (0000ms, 0443ms total)
T335C 000:897 JLINK_WriteReg(R3, 0x00000000)  returns 0x00 (0000ms, 0443ms total)
T335C 000:897 JLINK_WriteReg(R4, 0x00000000)  returns 0x00 (0000ms, 0443ms total)
T335C 000:897 JLINK_WriteReg(R5, 0x00000000)  returns 0x00 (0000ms, 0443ms total)
T335C 000:897 JLINK_WriteReg(R6, 0x00000000)  returns 0x00 (0000ms, 0443ms total)
T335C 000:897 JLINK_WriteReg(R7, 0x00000000)  returns 0x00 (0000ms, 0443ms total)
T335C 000:897 JLINK_WriteReg(R8, 0x00000000)  returns 0x00 (0000ms, 0443ms total)
T335C 000:897 JLINK_WriteReg(R9, 0x20000160)  returns 0x00 (0000ms, 0443ms total)
T335C 000:897 JLINK_WriteReg(R10, 0x00000000)  returns 0x00 (0000ms, 0443ms total)
T335C 000:897 JLINK_WriteReg(R11, 0x00000000)  returns 0x00 (0000ms, 0443ms total)
T335C 000:897 JLINK_WriteReg(R12, 0x00000000)  returns 0x00 (0000ms, 0443ms total)
T335C 000:897 JLINK_WriteReg(R13 (SP), 0x20001000)  returns 0x00 (0000ms, 0443ms total)
T335C 000:897 JLINK_WriteReg(R14, 0x20000001)  returns 0x00 (0000ms, 0443ms total)
T335C 000:897 JLINK_WriteReg(R15 (PC), 0x200000F4)  returns 0x00 (0000ms, 0443ms total)
T335C 000:897 JLINK_WriteReg(XPSR, 0x01000000)  returns 0x00 (0000ms, 0443ms total)
T335C 000:897 JLINK_WriteReg(MSP, 0x20001000)  returns 0x00 (0000ms, 0443ms total)
T335C 000:897 JLINK_WriteReg(PSP, 0x20001000)  returns 0x00 (0000ms, 0443ms total)
T335C 000:897 JLINK_WriteReg(CFBP, 0x00000000)  returns 0x00 (0000ms, 0443ms total)
T335C 000:897 JLINK_SetBPEx(Addr = 0x20000000, Type = 0xFFFFFFF2)  returns 0x0000000D (0000ms, 0443ms total)
T335C 000:897 JLINK_Go() -- CPU_ReadMem(4 bytes @ 0xE0001000) (0003ms, 0446ms total)
T335C 000:900 JLINK_IsHalted()  returns FALSE (0001ms, 0447ms total)
T335C 000:906 JLINK_IsHalted()  returns FALSE (0000ms, 0446ms total)
T335C 000:910 JLINK_IsHalted()  returns FALSE (0000ms, 0446ms total)
T335C 000:912 JLINK_IsHalted()  returns FALSE (0000ms, 0446ms total)
T335C 000:917 JLINK_IsHalted()  returns FALSE (0000ms, 0446ms total)
T335C 000:919 JLINK_IsHalted()  returns FALSE (0000ms, 0446ms total)
T335C 000:923 JLINK_IsHalted()  returns FALSE (0000ms, 0446ms total)
T335C 000:925 JLINK_IsHalted()  returns FALSE (0000ms, 0446ms total)
T335C 000:927 JLINK_IsHalted()  returns FALSE (0000ms, 0446ms total)
T335C 000:931 JLINK_IsHalted() -- CPU_ReadMem(2 bytes @ 0x20000000)  returns TRUE (0004ms, 0450ms total)
T335C 000:935 JLINK_ReadReg(R15 (PC))  returns 0x20000000 (0000ms, 0446ms total)
T335C 000:935 JLINK_ClrBPEx(BPHandle = 0x0000000D)  returns 0x00 (0000ms, 0446ms total)
T335C 000:935 JLINK_ReadReg(R0)  returns 0x00000000 (0000ms, 0446ms total)
T335C 000:935 JLINK_WriteMem(0x20000164, 0x029C Bytes, ...) - Data: 65 74 5B 69 5D 20 3A 20 25 66 20 20 20 20 00 00 ... -- CPU_WriteMem(668 bytes @ 0x20000164)  returns 0x29C (0008ms, 0454ms total)
T335C 000:943 JLINK_WriteMem(0x20000400, 0x0164 Bytes, ...) - Data: 40 F0 04 00 88 61 00 BF 00 BF 08 46 C0 69 40 F4 ... -- CPU_WriteMem(356 bytes @ 0x20000400)  returns 0x164 (0005ms, 0459ms total)
